
**** 05/21/21 13:13:59 ****** PSpice 17.2.0 (March 2016) ****** ID# 0 ********

 ** Profile: "SCHEMATIC1-dc"  [ D:\Homeworks\An 2 sem 2\Tehnici CAD\Proiect-final\Final-Corect\proiect_cad-pspicefiles\schematic1\dc.


 ****     CIRCUIT DESCRIPTION


******************************************************************************




** Creating circuit file "dc.cir" 
** WARNING: THIS AUTOMATICALLY GENERATED FILE MAY BE OVERWRITTEN BY SUBSEQUENT SIMULATIONS

*Libraries: 
* Profile Libraries :
* Local Libraries :
* From [PSPICE NETLIST] section of D:\Homeworks\An 2 sem 2\Tehnici CAD\Projects\cdssetup\OrCAD_PSpice\17.2.0\PSpice.ini file:
.lib "D:\Homeworks\An 2 sem 2\Tehnici CAD\Proiect-final\Final-Corect\leduri.lib" 
.lib "nom.lib" 

*Analysis directives: 
.TRAN  0 1000ns 0 
.MC 10 TRAN v([LED]) YMAX OUTPUT ALL SEED=200 
.OPTIONS ADVCONV
.PROBE64 V(alias(*)) I(alias(*)) W(alias(*)) D(alias(*)) NOISE(alias(*)) 
.INC "..\SCHEMATIC1.net" 



**** INCLUDING SCHEMATIC1.net ****
* source PROIECT_CAD
R_R22         N23185 N231710 R_R22 261 TC=0,0 
.model        R_R22 RES R=1 DEV=1% TC1=0 TC2=0
R_R7         N22863 0 R_R7 1k TC=0,0 
.model        R_R7 RES R=1 DEV=1% TC1=0 TC2=0
X_U2B         N22369 SENZOR VCC -VCC SENZOR LM324
R_R21         0 N23569 R_R21 499 TC=0,0 
.model        R_R21 RES R=1 DEV=1% TC1=0 TC2=0
X_U9C         N23743 LED VCC 0 N23667 LM324
X_U3C         N22583 N22401 VCC -VCC LED LM324
R_R10         N22401 LED R_R10 4.99k TC=0,0 
.model        R_R10 RES R=1 DEV=1% TC1=0 TC2=0
R_R17         N23743 VCC R_R17 1.58k TC=0,0 
.model        R_R17 RES R=1 DEV=1% TC1=0 TC2=0
R_R25         N229811 N23003 R_R25 191 TC=0,0 
.model        R_R25 RES R=1 DEV=1% TC1=0 TC2=0
X_U1B         N22473 DESCAZUT VCC -VCC DESCAZUT LM324
V_V1         VCC 0 8
R_R6         N22863 SENZOR R_R6 1k TC=0,0 
.model        R_R6 RES R=1 DEV=1% TC1=0 TC2=0
R_R18         0 N23743 R_R18 2k TC=0,0 
.model        R_R18 RES R=1 DEV=1% TC1=0 TC2=0
R_R20         N23569 VCC R_R20 4.3k TC=0,0 
.model        R_R20 RES R=1 DEV=1% TC1=0 TC2=0
R_R4         N22473 VCC R_R4 665 TC=0,0 
.model        R_R4 RES R=1 DEV=1% TC1=0 TC2=0
R_R26         N23015 VCC R_R26 182 TC=0,0 
.model        R_R26 RES R=1 DEV=1% TC1=0 TC2=0
X_U8C         N23379 LED VCC 0 N23367 LM324
R_R14         N23379 VCC R_R14 357 TC=0,0 
.model        R_R14 RES R=1 DEV=1% TC1=0 TC2=0
R_R8         N22583 N22571  1k TC=0,0 
R_R23         N23197 VCC R_R23 4.12k TC=0,0 
.model        R_R23 RES R=1 DEV=1% TC1=0 TC2=0
R_R24         0 N23197 R_R24 1k TC=0,0 
.model        R_R24 RES R=1 DEV=1% TC1=0 TC2=0
V_V2         -VCC 0 -8
R_R13         N23367 N233530 R_R13 191 TC=0,0 
.model        R_R13 RES R=1 DEV=1% TC1=0 TC2=0
R_R15         0 N23379 R_R15 2k TC=0,0 
.model        R_R15 RES R=1 DEV=1% TC1=0 TC2=0
R_R2         N22369 VCC R_R2 12.1k TC=0,0 
.model        R_R2 RES R=1 DEV=1% TC1=0 TC2=0
R_R16         N23667 N236530 R_R16 267 TC=0,0 
.model        R_R16 RES R=1 DEV=1% TC1=0 TC2=0
R_R27         0 N23015 R_R27 2k TC=0,0 
.model        R_R27 RES R=1 DEV=1% TC1=0 TC2=0
R_R5         N22571 DESCAZUT R_R5 1k TC=0,0 
.model        R_R5 RES R=1 DEV=1% TC1=0 TC2=0
X_U6C         N23197 LED VCC 0 N23185 LM324
R_R19         N23549 N235350 R_R19 261 TC=0,0 
.model        R_R19 RES R=1 DEV=1% TC1=0 TC2=0
X_U5C         N23569 LED VCC 0 N23549 LM324
X_U7C         N23015 LED VCC 0 N23003 LM324
X_U4D         N22863 N22571 VCC -VCC N22583 LM324
R_R3         0 N22473 R_R3 2k TC=0,0 
.model        R_R3 RES R=1 DEV=1% TC1=0 TC2=0
R_R9         N22401 0 R_R9 1k TC=0,0 
.model        R_R9 RES R=1 DEV=1% TC1=0 TC2=0
D_D1         N229811 0 L_VERDE 
D_D2         N233530 0 L_ALBASTRU 
D_D3         N236530 0 L_PORTOCALIU 
D_D4         N231710 0 L_GALBEN 
D_D5         N235350 0 L_ROSU 
X_R28         0 0 N22369 POT PARAMS: SET={cursor} VALUE=100K
.PARAM  cursor=0.40

**** RESUMING dc.cir ****
.END

**** 05/21/21 13:13:59 ****** PSpice 17.2.0 (March 2016) ****** ID# 0 ********

 ** Profile: "SCHEMATIC1-dc"  [ D:\Homeworks\An 2 sem 2\Tehnici CAD\Proiect-final\Final-Corect\proiect_cad-pspicefiles\schematic1\dc.


 ****     Diode MODEL PARAMETERS


******************************************************************************




               L_VERDE         L_ALBASTRU      L_PORTOCALIU    L_GALBEN        
          IS  394.470000E-15   16.925000E-18   10.000000E-21   10.000000E-21 
           N    4.9992          3.1189          1.7228          1.7309       
          RS    5.9117         13.701           1.8616          4.3078       


               L_ROSU          X_U2B.dx        X_U2B.dy        X_U9C.dx        
          IS   10.000000E-21  800.000000E-18  800.000000E-18  800.000000E-18 
           N    1.737                                                        
          RS    4.2925          1               1.000000E-03    1            
         CJO                                   10.000000E-12                 


               X_U9C.dy        X_U3C.dx        X_U3C.dy        X_U1B.dx        
          IS  800.000000E-18  800.000000E-18  800.000000E-18  800.000000E-18 
          RS    1.000000E-03    1               1.000000E-03    1            
         CJO   10.000000E-12                   10.000000E-12                 


               X_U1B.dy        X_U8C.dx        X_U8C.dy        X_U6C.dx        
          IS  800.000000E-18  800.000000E-18  800.000000E-18  800.000000E-18 
          RS    1.000000E-03    1               1.000000E-03    1            
         CJO   10.000000E-12                   10.000000E-12                 


               X_U6C.dy        X_U5C.dx        X_U5C.dy        X_U7C.dx        
          IS  800.000000E-18  800.000000E-18  800.000000E-18  800.000000E-18 
          RS    1.000000E-03    1               1.000000E-03    1            
         CJO   10.000000E-12                   10.000000E-12                 


               X_U7C.dy        X_U4D.dx        X_U4D.dy        
          IS  800.000000E-18  800.000000E-18  800.000000E-18 
          RS    1.000000E-03    1               1.000000E-03 
         CJO   10.000000E-12                   10.000000E-12 


**** 05/21/21 13:13:59 ****** PSpice 17.2.0 (March 2016) ****** ID# 0 ********

 ** Profile: "SCHEMATIC1-dc"  [ D:\Homeworks\An 2 sem 2\Tehnici CAD\Proiect-final\Final-Corect\proiect_cad-pspicefiles\schematic1\dc.


 ****     BJT MODEL PARAMETERS


******************************************************************************




               X_U2B.qx        X_U9C.qx        X_U3C.qx        X_U1B.qx        
               PNP             PNP             PNP             PNP             
       LEVEL    1               1               1               1            
          IS  800.000000E-18  800.000000E-18  800.000000E-18  800.000000E-18 
          BF  166.7           166.7           166.7           166.7          
          NF    1               1               1               1            
          BR    1               1               1               1            
          NR    1               1               1               1            
         ISS    0               0               0               0            
          RE    0               0               0               0            
          RC    0               0               0               0            
         CJE    0               0               0               0            
         VJE     .75             .75             .75             .75         
         CJC    0               0               0               0            
         VJC     .75             .75             .75             .75         
         MJC     .33             .33             .33             .33         
        XCJC    1               1               1               1            
         CJS    0               0               0               0            
         VJS     .75             .75             .75             .75         
          KF    0               0               0               0            
          AF    1               1               1               1            
          CN    2.2             2.2             2.2             2.2          
           D     .52             .52             .52             .52         


               X_U8C.qx        X_U6C.qx        X_U5C.qx        X_U7C.qx        
               PNP             PNP             PNP             PNP             
       LEVEL    1               1               1               1            
          IS  800.000000E-18  800.000000E-18  800.000000E-18  800.000000E-18 
          BF  166.7           166.7           166.7           166.7          
          NF    1               1               1               1            
          BR    1               1               1               1            
          NR    1               1               1               1            
         ISS    0               0               0               0            
          RE    0               0               0               0            
          RC    0               0               0               0            
         CJE    0               0               0               0            
         VJE     .75             .75             .75             .75         
         CJC    0               0               0               0            
         VJC     .75             .75             .75             .75         
         MJC     .33             .33             .33             .33         
        XCJC    1               1               1               1            
         CJS    0               0               0               0            
         VJS     .75             .75             .75             .75         
          KF    0               0               0               0            
          AF    1               1               1               1            
          CN    2.2             2.2             2.2             2.2          
           D     .52             .52             .52             .52         


               X_U4D.qx        
               PNP             
       LEVEL    1            
          IS  800.000000E-18 
          BF  166.7          
          NF    1            
          BR    1            
          NR    1            
         ISS    0            
          RE    0            
          RC    0            
         CJE    0            
         VJE     .75         
         CJC    0            
         VJC     .75         
         MJC     .33         
        XCJC    1            
         CJS    0            
         VJS     .75         
          KF    0            
          AF    1            
          CN    2.2          
           D     .52         


**** 05/21/21 13:13:59 ****** PSpice 17.2.0 (March 2016) ****** ID# 0 ********

 ** Profile: "SCHEMATIC1-dc"  [ D:\Homeworks\An 2 sem 2\Tehnici CAD\Proiect-final\Final-Corect\proiect_cad-pspicefiles\schematic1\dc.


 ****     Resistor MODEL PARAMETERS


******************************************************************************




               R_R22           R_R7            R_R21           R_R10           
           R    1               1               1               1            


               R_R17           R_R25           R_R6            R_R18           
           R    1               1               1               1            


               R_R20           R_R4            R_R26           R_R14           
           R    1               1               1               1            


               R_R23           R_R24           R_R13           R_R15           
           R    1               1               1               1            


               R_R2            R_R16           R_R27           R_R5            
           R    1               1               1               1            


               R_R19           R_R3            R_R9            
           R    1               1               1            


**** 05/21/21 13:13:59 ****** PSpice 17.2.0 (March 2016) ****** ID# 0 ********

 ** Profile: "SCHEMATIC1-dc"  [ D:\Homeworks\An 2 sem 2\Tehnici CAD\Proiect-final\Final-Corect\proiect_cad-pspicefiles\schematic1\dc.


 ****     Current Controlled Switch MODEL PARAMETERS


******************************************************************************




               X_U2B.sw2       X_U2B.sw1       X_U2B.sw3       X_U2B.sw4       
         RON    1               1               1               1            
        ROFF   10.000000E+06   10.000000E+06   10.000000E+06   10.000000E+06 
         ION    0              -1.000000E-06   -1.000000E-06    0            
        IOFF   -1.000000E-06    0               0              -1.000000E-06 


               X_U9C.sw2       X_U9C.sw1       X_U9C.sw3       X_U9C.sw4       
         RON    1               1               1               1            
        ROFF   10.000000E+06   10.000000E+06   10.000000E+06   10.000000E+06 
         ION    0              -1.000000E-06   -1.000000E-06    0            
        IOFF   -1.000000E-06    0               0              -1.000000E-06 


               X_U3C.sw2       X_U3C.sw1       X_U3C.sw3       X_U3C.sw4       
         RON    1               1               1               1            
        ROFF   10.000000E+06   10.000000E+06   10.000000E+06   10.000000E+06 
         ION    0              -1.000000E-06   -1.000000E-06    0            
        IOFF   -1.000000E-06    0               0              -1.000000E-06 


               X_U1B.sw2       X_U1B.sw1       X_U1B.sw3       X_U1B.sw4       
         RON    1               1               1               1            
        ROFF   10.000000E+06   10.000000E+06   10.000000E+06   10.000000E+06 
         ION    0              -1.000000E-06   -1.000000E-06    0            
        IOFF   -1.000000E-06    0               0              -1.000000E-06 


               X_U8C.sw2       X_U8C.sw1       X_U8C.sw3       X_U8C.sw4       
         RON    1               1               1               1            
        ROFF   10.000000E+06   10.000000E+06   10.000000E+06   10.000000E+06 
         ION    0              -1.000000E-06   -1.000000E-06    0            
        IOFF   -1.000000E-06    0               0              -1.000000E-06 


               X_U6C.sw2       X_U6C.sw1       X_U6C.sw3       X_U6C.sw4       
         RON    1               1               1               1            
        ROFF   10.000000E+06   10.000000E+06   10.000000E+06   10.000000E+06 
         ION    0              -1.000000E-06   -1.000000E-06    0            
        IOFF   -1.000000E-06    0               0              -1.000000E-06 


               X_U5C.sw2       X_U5C.sw1       X_U5C.sw3       X_U5C.sw4       
         RON    1               1               1               1            
        ROFF   10.000000E+06   10.000000E+06   10.000000E+06   10.000000E+06 
         ION    0              -1.000000E-06   -1.000000E-06    0            
        IOFF   -1.000000E-06    0               0              -1.000000E-06 


               X_U7C.sw2       X_U7C.sw1       X_U7C.sw3       X_U7C.sw4       
         RON    1               1               1               1            
        ROFF   10.000000E+06   10.000000E+06   10.000000E+06   10.000000E+06 
         ION    0              -1.000000E-06   -1.000000E-06    0            
        IOFF   -1.000000E-06    0               0              -1.000000E-06 


               X_U4D.sw2       X_U4D.sw1       X_U4D.sw3       X_U4D.sw4       
         RON    1               1               1               1            
        ROFF   10.000000E+06   10.000000E+06   10.000000E+06   10.000000E+06 
         ION    0              -1.000000E-06   -1.000000E-06    0            
        IOFF   -1.000000E-06    0               0              -1.000000E-06 


**** 05/21/21 13:13:59 ****** PSpice 17.2.0 (March 2016) ****** ID# 0 ********

 ** Profile: "SCHEMATIC1-dc"  [ D:\Homeworks\An 2 sem 2\Tehnici CAD\Proiect-final\Final-Corect\proiect_cad-pspicefiles\schematic1\dc.


 ****     INITIAL TRANSIENT SOLUTION       TEMPERATURE =   27.000 DEG C

                      MONTE CARLO NOMINAL

******************************************************************************



 NODE   VOLTAGE     NODE   VOLTAGE     NODE   VOLTAGE     NODE   VOLTAGE


(  LED)     .8145  (  VCC)    8.0000  ( -VCC)   -8.0000  (N22369)    6.1424     

(N22401)     .1360 (N22473)    6.0038 (N22571)    3.0689 (N22583)     .1363     

(N22863)    3.0701 (N23003)    7.2976 (N23015)    7.3327 (N23185)    7.2982     

(N23197)    1.5625 (N23367)    7.2962 (N23379)    6.7883 (N23549)    7.2982     

(N23569)     .8319 (N23667)    7.2985 (N23743)    4.4693 (SENZOR)    6.1402     

(N229811)    3.3158                   (N231710)    1.9753                       

(N233530)    3.1075                   (N235350)    1.9814                       

(N236530)    1.9156                   (X_U1B.6)    -.0012                       

(X_U1B.7)    6.1482                   (X_U1B.8)    6.1482                       

(X_U1B.9)    0.0000                   (X_U1B.a)    7.9971                       

(X_U1B.b)    -.0029                   (X_U2B.6)    -.0012                       

(X_U2B.7)    6.2937                   (X_U2B.8)    6.2937                       

(X_U2B.9)    0.0000                   (X_U2B.a)    7.9969                       

(X_U2B.b)    -.0031                   (X_U3C.6)-155.5E-06                       

(X_U3C.7)     .8212                   (X_U3C.8)     .8212                       

(X_U3C.9)    0.0000                   (X_U3C.a)    7.9999                       

(X_U3C.b)-136.3E-06                   (X_U4D.6) 16.33E-06                       

(X_U4D.7)    -.0104                   (X_U4D.8)    -.0104                       

(X_U4D.9)    0.0000                   (X_U4D.a)     .0029                       

(X_U4D.b)   -7.9971                   (X_U5C.6)    -.3425                       

(X_U5C.7)    9.3265                   (X_U5C.8)    9.3265                       

(X_U5C.9)    0.0000                   (X_U5C.a)    7.9594                       

(X_U5C.b)    -.0406                   (X_U6C.6)   -1.5343                       

(X_U6C.7)    9.3288                   (X_U6C.8)    9.3288                       

(X_U6C.9)    0.0000                   (X_U6C.a)    7.9594                       

(X_U6C.b)    -.0406                   (X_U7C.6)   -1.5343                       

(X_U7C.7)    9.3282                   (X_U7C.8)    9.3282                       

(X_U7C.9)    0.0000                   (X_U7C.a)    7.9594                       

(X_U7C.b)    -.0406                   (X_U8C.6)   -1.5343                       

(X_U8C.7)    9.3268                   (X_U8C.8)    9.3268                       

(X_U8C.9)    0.0000                   (X_U8C.a)    7.9594                       

(X_U8C.b)    -.0406                   (X_U9C.6)   -1.5343                       

(X_U9C.7)    9.3291                   (X_U9C.8)    9.3291                       

(X_U9C.9)    0.0000                   (X_U9C.a)    7.9594                       

(X_U9C.b)    -.0406                   (DESCAZUT)    6.0016                      

(X_U1B.10)    6.6091                  (X_U1B.11)   -7.9605                      

(X_U1B.12)   -7.9626                  (X_U1B.13)    6.5953                      

(X_U1B.14)    6.5960                  (X_U1B.53)    6.5000                      

